
T0950 000:076 SEGGER J-Link V6.10i Log File (0001ms, 0049ms total)
T0950 000:076 DLL Compiled: Oct 25 2016 19:31:51 (0001ms, 0049ms total)
T0950 000:076 Logging started @ 2020-05-06 17:06 (0001ms, 0049ms total)
T0950 000:077 JLINK_SetWarnOutHandler(...) (0000ms, 0049ms total)
T0950 000:077 JLINK_OpenEx(...)
Firmware: J-Link V9 compiled Oct 25 2018 11:46:07
Hardware: V9.40
S/N: 59408297
Feature(s): RDI, GDB, FlashDL, FlashBP, JFlashWEBSRV Webserver running on local port 19080 (0026ms, 0075ms total)
T0950 000:077   returns O.K. (0026ms, 0075ms total)
T0950 000:103 JLINK_SetErrorOutHandler(...) (0000ms, 0075ms total)
T0950 000:103 JLINK_ExecCommand("ProjectFile = "E:\project\py1903\KEA128_DSP_BOOT\Keil_Pro\JLinkSettings.ini"", ...).   returns 0x00 (0120ms, 0195ms total)
T0950 000:224 JLINK_ExecCommand("Device = SKEAZ128xxx4", ...). Device "SKEAZ128XXX4" selected.  returns 0x00 (0002ms, 0197ms total)
T0950 000:226 JLINK_ExecCommand("DisableConnectionTimeout", ...).   returns 0x01 (0000ms, 0198ms total)
T0950 000:227 JLINK_GetHardwareVersion()  returns 0x16F30 (0000ms, 0198ms total)
T0950 000:227 JLINK_GetDLLVersion()  returns 61009 (0000ms, 0198ms total)
T0950 000:227 JLINK_GetFirmwareString(...) (0000ms, 0198ms total)
T0950 000:232 JLINK_GetDLLVersion()  returns 61009 (0000ms, 0198ms total)
T0950 000:232 JLINK_GetCompileDateTime() (0000ms, 0198ms total)
T0950 000:234 JLINK_GetFirmwareString(...) (0000ms, 0198ms total)
T0950 000:235 JLINK_GetHardwareVersion()  returns 0x16F30 (0000ms, 0198ms total)
T0950 000:241 JLINK_TIF_Select(JLINKARM_TIF_SWD)  returns 0x00 (0005ms, 0203ms total)
T0950 000:246 JLINK_SetSpeed(500) (0001ms, 0204ms total)
T0950 000:247 JLINK_GetId() >0x108 TIF>Found SWD-DP with ID 0x0BC11477 >0x0D TIF> >0x28 TIF> >0x0D TIF> >0x28 TIF> >0x0D TIF> >0x28 TIF> >0x0D TIF> >0x28 TIF> >0x0D TIF> >0x21 TIF> >0x0D TIF> >0x28 TIF> >0x0D TIF> >0x21 TIF> >0x0D TIF> >0x21 TIF> >0x0D TIF> >0x21 TIF> >0x0D TIF> >0x21 TIF> >0x0D TIF> >0x21 TIF> >0x0D TIF> >0x21 TIF> >0x0D TIF> >0x21 TIF> >0x0D TIF> >0x21 TIF> >0x0D TIF> >0x21 TIF> >0x0D TIF> >0x21 TIF> >0x0D TIF> >0x21 TIF> >0x0D TIF> >0x21 TIF> >0x0D TIF> >0x21 TIF> >0x0D TIF>
 >0x21 TIF> >0x0D TIF> >0x21 TIF> >0x0D TIF> >0x21 TIF> >0x0D TIF> >0x21 TIF> >0x0D TIF> >0x21 TIF> >0x0D TIF> >0x21 TIF> >0x0D TIF> >0x21 TIF> >0x0D TIF> >0x21 TIF> >0x0D TIF> >0x21 TIF> >0x0D TIF> >0x21 TIF> >0x0D TIF> >0x21 TIF> >0x0D TIF> >0x28 TIF> >0x0D TIF> >0x28 TIF> >0x0D TIF> >0x28 TIF> >0x0D TIF> >0x21 TIF> >0x0D TIF> >0x21 TIF> >0x108 TIF>Found SWD-DP with ID 0x0BC11477 >0x0D TIF> >0x28 TIF> >0x0D TIF> >0x28 TIF> >0x0D TIF> >0x28 TIF> >0x0D TIF> >0x28 TIF> >0x0D TIF> >0x21 TIF> >0x0D TIF>
 >0x28 TIF> >0x0D TIF> >0x28 TIF> >0x0D TIF> >0x21 TIF> >0x0D TIF> >0x21 TIF> >0x0D TIF> >0x21 TIF>AP-IDR: 0x04770031, Type: AHB-AP >0x0D TIF> >0x28 TIF> >0x0D TIF> >0x28 TIF> >0x0D TIF> >0x28 TIF> >0x0D TIF> >0x21 TIF> >0x0D TIF> >0x21 TIF> >0x0D TIF> >0x28 TIF> >0x0D TIF> >0x21 TIF> >0x0D TIF> >0x21 TIF>Found Cortex-M0 r0p0, Little endian. -- CPU_ReadMem(4 bytes @ 0xE000EDF0) -- CPU_WriteMem(4 bytes @ 0xE000EDF0) -- CPU_ReadMem(4 bytes @ 0xE0002000)FPUnit: 2 code (BP) slots and 0 literal slots
 -- CPU_ReadMem(4 bytes @ 0xE000EDFC) -- CPU_WriteMem(4 bytes @ 0xE000EDFC) -- CPU_ReadMem(4 bytes @ 0xE0001000) -- CPU_WriteMem(4 bytes @ 0xE0001000)CoreSight components:ROMTbl 0 @ F0002000 -- CPU_ReadMem(16 bytes @ 0xF0002000) -- CPU_ReadMem(16 bytes @ 0xE00FFFF0) -- CPU_ReadMem(16 bytes @ 0xE00FFFE0)ROMTbl 0 [0]: F00FD000, CID: B105100D, PID: 000BB4C0 ROM TableROMTbl 1 @ E00FF000 -- CPU_ReadMem(16 bytes @ 0xE00FF000) -- CPU_ReadMem(16 bytes @ 0xE000EFF0) -- CPU_ReadMem(16 bytes @ 0xE000EFE0)
ROMTbl 1 [0]: FFF0F000, CID: B105E00D, PID: 000BB008 SCS -- CPU_ReadMem(16 bytes @ 0xE0001FF0) -- CPU_ReadMem(16 bytes @ 0xE0001FE0)ROMTbl 1 [1]: FFF02000, CID: B105E00D, PID: 000BB00A DWT -- CPU_ReadMem(16 bytes @ 0xE0002FF0) -- CPU_ReadMem(16 bytes @ 0xE0002FE0)ROMTbl 1 [2]: FFF03000, CID: B105E00D, PID: 000BB00B FPB******************************************************J-Link: SetupTarget()Disable watchdog if enabled******************************************************
 -- CPU_ReadMem(1 bytes @ 0x40052000) -- CPU_WriteMem(1 bytes @ 0x40052004) -- CPU_WriteMem(1 bytes @ 0x40052005) -- CPU_WriteMem(1 bytes @ 0x40052006) -- CPU_WriteMem(1 bytes @ 0x40052007) -- CPU_WriteMem(1 bytes @ 0x40052001) -- CPU_WriteMem(1 bytes @ 0x40052000) >0x0D TIF> >0x21 TIF>  returns 0x0BC11477 (0246ms, 0450ms total)
T0950 000:493 JLINK_GetDLLVersion()  returns 61009 (0000ms, 0450ms total)
T0950 000:493 JLINK_CORE_GetFound()  returns 0x60000FF (0000ms, 0450ms total)
T0950 000:493 JLINK_GetDebugInfo(0x100) -- Value=0xF0002000  returns 0x00 (0000ms, 0450ms total)
T0950 000:495 JLINK_GetDebugInfo(0x100) -- Value=0xF0002000  returns 0x00 (0000ms, 0450ms total)
T0950 000:495 JLINK_GetDebugInfo(0x101) -- Value=0x00000000  returns 0x00 (0000ms, 0450ms total)
T0950 000:495 JLINK_ReadMem (0xE0041FF0, 0x0010 Bytes, ...) -- CPU_ReadMem(16 bytes @ 0xE0041FF0) - Data: 00 00 00 00 00 00 00 00 00 00 00 00 00 00 00 00  returns 0x00 (0002ms, 0452ms total)
T0950 000:497 JLINK_GetDebugInfo(0x102) -- Value=0x00000000  returns 0x00 (0001ms, 0453ms total)
T0950 000:498 JLINK_GetDebugInfo(0x103) -- Value=0x00000000  returns 0x00 (0000ms, 0453ms total)
T0950 000:498 JLINK_ReadMem (0xE0040FF0, 0x0010 Bytes, ...) -- CPU_ReadMem(16 bytes @ 0xE0040FF0) - Data: 00 00 00 00 00 00 00 00 00 00 00 00 00 00 00 00  returns 0x00 (0002ms, 0455ms total)
T0950 000:500 JLINK_GetDebugInfo(0x104) -- Value=0xE0000000  returns 0x00 (0000ms, 0455ms total)
T0950 000:500 JLINK_GetDebugInfo(0x105) -- Value=0xE0001000  returns 0x00 (0000ms, 0455ms total)
T0950 000:500 JLINK_GetDebugInfo(0x106) -- Value=0xE0002000  returns 0x00 (0000ms, 0455ms total)
T0950 000:500 JLINK_GetDebugInfo(0x107) -- Value=0xE000E000  returns 0x00 (0000ms, 0455ms total)
T0950 000:500 JLINK_GetDebugInfo(0x10C) -- Value=0xE000EDF0  returns 0x00 (0000ms, 0455ms total)
T0950 000:500 JLINK_ReadMemU32(0xE000ED00, 0x0001 Items, ...) -- CPU_ReadMem(4 bytes @ 0xE000ED00) - Data: 00 C6 0C 41  returns 0x01 (0002ms, 0457ms total)
T0950 000:502 JLINK_SetResetType(JLINKARM_RESET_TYPE_NORMAL)  returns JLINKARM_RESET_TYPE_NORMAL (0000ms, 0457ms total)
T0950 000:502 JLINK_Reset()******************************************************J-Link: AfterReset()Disable watchdog if enabled****************************************************** -- CPU_ReadMem(4 bytes @ 0xE000EDFC) -- CPU_WriteMem(4 bytes @ 0xE000EDFC) -- CPU_WriteMem(4 bytes @ 0xE000ED0C) -- CPU_ReadMem(4 bytes @ 0xE000EDF0) -- CPU_ReadMem(4 bytes @ 0xE000EDF0) -- CPU_WriteMem(4 bytes @ 0xE000EDFC) -- CPU_ReadMem(1 bytes @ 0x40052000) -- CPU_WriteMem(1 bytes @ 0x40052004)
 -- CPU_WriteMem(1 bytes @ 0x40052005) -- CPU_WriteMem(1 bytes @ 0x40052006) -- CPU_WriteMem(1 bytes @ 0x40052007) -- CPU_WriteMem(1 bytes @ 0x40052001) -- CPU_WriteMem(1 bytes @ 0x40052000) -- CPU_WriteMem(4 bytes @ 0xE0002000) -- CPU_ReadMem(4 bytes @ 0xE000EDFC) -- CPU_ReadMem(4 bytes @ 0xE0001000) -- CPU_WriteMem(4 bytes @ 0xE0001000) (0052ms, 0509ms total)
T0950 000:554 JLINK_Halt()  returns 0x00 (0000ms, 0509ms total)
T0950 000:554 JLINK_IsHalted()  returns TRUE (0000ms, 0509ms total)
T0950 000:554 JLINK_ReadMemU32(0xE000EDF0, 0x0001 Items, ...) -- CPU_ReadMem(4 bytes @ 0xE000EDF0) - Data: 03 00 03 00  returns 0x01 (0002ms, 0511ms total)
T0950 000:556 JLINK_WriteU32(0xE000EDF0, 0xA05F0003) -- CPU_WriteMem(4 bytes @ 0xE000EDF0)  returns 0x00 (0002ms, 0513ms total)
T0950 000:558 JLINK_WriteU32(0xE000EDFC, 0x01000000) -- CPU_WriteMem(4 bytes @ 0xE000EDFC)  returns 0x00 (0002ms, 0515ms total)
T0950 000:580 JLINK_GetHWStatus(...)  returns 0x00 (0002ms, 0517ms total)
T0950 000:593 JLINK_GetNumBPUnits(Type = 0xFFFFFF00)  returns 0x02 (0000ms, 0517ms total)
T0950 000:593 JLINK_GetNumBPUnits(Type = 0xF0)  returns 0x2000 (0000ms, 0517ms total)
T0950 000:593 JLINK_GetNumWPUnits()  returns 0x02 (0000ms, 0517ms total)
T0950 000:601 JLINK_GetSpeed()  returns 0x1F4 (0000ms, 0517ms total)
T0950 000:605 JLINK_ReadMemU32(0xE000E004, 0x0001 Items, ...) -- CPU_ReadMem(4 bytes @ 0xE000E004) - Data: 00 00 00 00  returns 0x01 (0002ms, 0519ms total)
T0950 000:607 JLINK_Halt()  returns 0x00 (0000ms, 0519ms total)
T0950 000:607 JLINK_IsHalted()  returns TRUE (0000ms, 0519ms total)
T0950 000:610 JLINK_WriteMem(0x1FFFF000, 0x01AC Bytes, ...) - Data: 00 BE 0A E0 0D 78 2D 06 68 40 08 24 40 00 00 D3 ... -- CPU_WriteMem(428 bytes @ 0x1FFFF000)  returns 0x1AC (0014ms, 0533ms total)
T0950 000:624 JLINK_WriteReg(R0, 0x00000000)  returns 0x00 (0000ms, 0533ms total)
T0950 000:624 JLINK_WriteReg(R1, 0x007A1200)  returns 0x00 (0000ms, 0533ms total)
T0950 000:624 JLINK_WriteReg(R2, 0x00000001)  returns 0x00 (0000ms, 0533ms total)
T0950 000:624 JLINK_WriteReg(R3, 0x00000000)  returns 0x00 (0000ms, 0533ms total)
T0950 000:624 JLINK_WriteReg(R4, 0x00000000)  returns 0x00 (0000ms, 0533ms total)
T0950 000:624 JLINK_WriteReg(R5, 0x00000000)  returns 0x00 (0000ms, 0533ms total)
T0950 000:624 JLINK_WriteReg(R6, 0x00000000)  returns 0x00 (0000ms, 0533ms total)
T0950 000:624 JLINK_WriteReg(R7, 0x00000000)  returns 0x00 (0000ms, 0533ms total)
T0950 000:624 JLINK_WriteReg(R8, 0x00000000)  returns 0x00 (0000ms, 0533ms total)
T0950 000:624 JLINK_WriteReg(R9, 0x1FFFF1A8)  returns 0x00 (0000ms, 0533ms total)
T0950 000:624 JLINK_WriteReg(R10, 0x00000000)  returns 0x00 (0000ms, 0533ms total)
T0950 000:624 JLINK_WriteReg(R11, 0x00000000)  returns 0x00 (0000ms, 0533ms total)
T0950 000:624 JLINK_WriteReg(R12, 0x00000000)  returns 0x00 (0000ms, 0533ms total)
T0950 000:624 JLINK_WriteReg(R13 (SP), 0x1FFFF800)  returns 0x00 (0000ms, 0533ms total)
T0950 000:624 JLINK_WriteReg(R14, 0x1FFFF001)  returns 0x00 (0000ms, 0533ms total)
T0950 000:624 JLINK_WriteReg(R15 (PC), 0x1FFFF038)  returns 0x00 (0000ms, 0533ms total)
T0950 000:624 JLINK_WriteReg(XPSR, 0x01000000)  returns 0x00 (0000ms, 0533ms total)
T0950 000:624 JLINK_WriteReg(MSP, 0x1FFFF800)  returns 0x00 (0000ms, 0533ms total)
T0950 000:624 JLINK_WriteReg(PSP, 0x1FFFF800)  returns 0x00 (0000ms, 0533ms total)
T0950 000:624 JLINK_WriteReg(CFBP, 0x00000000)  returns 0x00 (0000ms, 0533ms total)
T0950 000:624 JLINK_SetBPEx(Addr = 0x1FFFF000, Type = 0xFFFFFFF2)  returns 0x00000001 (0000ms, 0533ms total)
T0950 000:624 JLINK_Go() -- CPU_WriteMem(4 bytes @ 0xE0002000) -- CPU_ReadMem(4 bytes @ 0xE0001000) -- CPU_WriteMem(4 bytes @ 0xE0001000) -- CPU_WriteMem(4 bytes @ 0xE0002008) -- CPU_WriteMem(4 bytes @ 0xE000200C) -- CPU_WriteMem(4 bytes @ 0xE0001004) (0018ms, 0551ms total)
T0950 000:642 JLINK_IsHalted()  returns TRUE (0014ms, 0565ms total)
T0950 000:656 JLINK_ReadReg(R15 (PC))  returns 0x1FFFF000 (0000ms, 0551ms total)
T0950 000:656 JLINK_ClrBPEx(BPHandle = 0x00000001)  returns 0x00 (0000ms, 0551ms total)
T0950 000:656 JLINK_ReadReg(R0)  returns 0x00000000 (0000ms, 0551ms total)
T0950 000:656 JLINK_WriteReg(R0, 0x00000000)  returns 0x00 (0001ms, 0552ms total)
T0950 000:657 JLINK_WriteReg(R1, 0x007A1200)  returns 0x00 (0000ms, 0552ms total)
T0950 000:657 JLINK_WriteReg(R2, 0x00000001)  returns 0x00 (0000ms, 0552ms total)
T0950 000:657 JLINK_WriteReg(R3, 0x00000000)  returns 0x00 (0000ms, 0552ms total)
T0950 000:657 JLINK_WriteReg(R4, 0x00000000)  returns 0x00 (0000ms, 0552ms total)
T0950 000:657 JLINK_WriteReg(R5, 0x00000000)  returns 0x00 (0000ms, 0552ms total)
T0950 000:657 JLINK_WriteReg(R6, 0x00000000)  returns 0x00 (0000ms, 0552ms total)
T0950 000:657 JLINK_WriteReg(R7, 0x00000000)  returns 0x00 (0000ms, 0552ms total)
T0950 000:657 JLINK_WriteReg(R8, 0x00000000)  returns 0x00 (0000ms, 0552ms total)
T0950 000:657 JLINK_WriteReg(R9, 0x1FFFF1A8)  returns 0x00 (0000ms, 0552ms total)
T0950 000:657 JLINK_WriteReg(R10, 0x00000000)  returns 0x00 (0000ms, 0552ms total)
T0950 000:657 JLINK_WriteReg(R11, 0x00000000)  returns 0x00 (0000ms, 0552ms total)
T0950 000:657 JLINK_WriteReg(R12, 0x00000000)  returns 0x00 (0000ms, 0552ms total)
T0950 000:657 JLINK_WriteReg(R13 (SP), 0x1FFFF800)  returns 0x00 (0000ms, 0552ms total)
T0950 000:657 JLINK_WriteReg(R14, 0x1FFFF001)  returns 0x00 (0000ms, 0552ms total)
T0950 000:657 JLINK_WriteReg(R15 (PC), 0x1FFFF06C)  returns 0x00 (0000ms, 0552ms total)
T0950 000:657 JLINK_WriteReg(XPSR, 0x01000000)  returns 0x00 (0000ms, 0552ms total)
T0950 000:657 JLINK_WriteReg(MSP, 0x1FFFF800)  returns 0x00 (0000ms, 0552ms total)
T0950 000:657 JLINK_WriteReg(PSP, 0x1FFFF800)  returns 0x00 (0000ms, 0552ms total)
T0950 000:657 JLINK_WriteReg(CFBP, 0x00000000)  returns 0x00 (0000ms, 0552ms total)
T0950 000:657 JLINK_SetBPEx(Addr = 0x1FFFF000, Type = 0xFFFFFFF2)  returns 0x00000002 (0000ms, 0552ms total)
T0950 000:657 JLINK_Go() -- CPU_WriteMem(4 bytes @ 0xE0002000) -- CPU_ReadMem(4 bytes @ 0xE0001000) -- CPU_WriteMem(4 bytes @ 0xE0001000) (0013ms, 0565ms total)
T0950 000:670 JLINK_IsHalted()  returns FALSE (0002ms, 0567ms total)
T0950 000:720 JLINK_IsHalted()  returns FALSE (0002ms, 0567ms total)
T0950 000:723 JLINK_IsHalted()  returns FALSE (0002ms, 0567ms total)
T0950 000:726 JLINK_IsHalted()  returns FALSE (0002ms, 0567ms total)
T0950 000:729 JLINK_IsHalted()  returns FALSE (0001ms, 0566ms total)
T0950 000:731 JLINK_IsHalted()  returns FALSE (0001ms, 0566ms total)
T0950 000:733 JLINK_IsHalted()  returns FALSE (0001ms, 0566ms total)
T0950 000:735 JLINK_IsHalted()  returns FALSE (0001ms, 0566ms total)
T0950 000:737 JLINK_IsHalted()  returns FALSE (0001ms, 0566ms total)
T0950 000:739 JLINK_IsHalted()  returns FALSE (0001ms, 0566ms total)
T0950 000:741 JLINK_IsHalted()  returns FALSE (0001ms, 0566ms total)
T0950 000:743 JLINK_IsHalted()  returns FALSE (0001ms, 0566ms total)
T0950 000:745 JLINK_IsHalted()  returns FALSE (0001ms, 0566ms total)
T0950 000:747 JLINK_IsHalted()  returns FALSE (0001ms, 0566ms total)
T0950 000:749 JLINK_IsHalted()  returns FALSE (0001ms, 0566ms total)
T0950 000:751 JLINK_IsHalted()  returns FALSE (0002ms, 0567ms total)
T0950 000:754 JLINK_IsHalted()  returns FALSE (0001ms, 0566ms total)
T0950 000:756 JLINK_IsHalted()  returns FALSE (0001ms, 0566ms total)
T0950 000:758 JLINK_IsHalted()  returns FALSE (0001ms, 0566ms total)
T0950 000:760 JLINK_IsHalted()  returns FALSE (0001ms, 0566ms total)
T0950 000:762 JLINK_IsHalted()  returns FALSE (0001ms, 0566ms total)
T0950 000:764 JLINK_IsHalted()  returns FALSE (0002ms, 0567ms total)
T0950 000:767 JLINK_IsHalted()  returns FALSE (0002ms, 0567ms total)
T0950 000:770 JLINK_IsHalted()  returns FALSE (0002ms, 0567ms total)
T0950 000:773 JLINK_IsHalted()  returns FALSE (0001ms, 0566ms total)
T0950 000:775 JLINK_IsHalted()  returns FALSE (0001ms, 0566ms total)
T0950 000:777 JLINK_IsHalted()  returns FALSE (0002ms, 0567ms total)
T0950 000:780 JLINK_IsHalted()  returns FALSE (0001ms, 0566ms total)
T0950 000:782 JLINK_IsHalted()  returns FALSE (0001ms, 0566ms total)
T0950 000:784 JLINK_IsHalted()  returns FALSE (0001ms, 0566ms total)
T0950 000:786 JLINK_IsHalted()  returns FALSE (0001ms, 0566ms total)
T0950 000:788 JLINK_IsHalted()  returns FALSE (0001ms, 0566ms total)
T0950 000:790 JLINK_IsHalted()  returns FALSE (0001ms, 0566ms total)
T0950 000:792 JLINK_IsHalted()  returns FALSE (0001ms, 0566ms total)
T0950 000:798 JLINK_IsHalted()  returns FALSE (0001ms, 0566ms total)
T0950 000:800 JLINK_IsHalted()  returns FALSE (0002ms, 0567ms total)
T0950 000:803 JLINK_IsHalted()  returns FALSE (0002ms, 0567ms total)
T0950 000:806 JLINK_IsHalted()  returns FALSE (0002ms, 0567ms total)
T0950 000:809 JLINK_IsHalted()  returns FALSE (0001ms, 0566ms total)
T0950 000:813 JLINK_IsHalted()  returns TRUE (0012ms, 0577ms total)
T0950 000:825 JLINK_ReadReg(R15 (PC))  returns 0x1FFFF000 (0000ms, 0565ms total)
T0950 000:825 JLINK_ClrBPEx(BPHandle = 0x00000002)  returns 0x00 (0000ms, 0565ms total)
T0950 000:825 JLINK_ReadReg(R0)  returns 0x00000000 (0000ms, 0565ms total)
T0950 000:877 JLINK_WriteReg(R0, 0x00000001)  returns 0x00 (0000ms, 0565ms total)
T0950 000:877 JLINK_WriteReg(R1, 0x007A1200)  returns 0x00 (0000ms, 0565ms total)
T0950 000:877 JLINK_WriteReg(R2, 0x00000001)  returns 0x00 (0000ms, 0565ms total)
T0950 000:878 JLINK_WriteReg(R3, 0x00000000)  returns 0x00 (0000ms, 0566ms total)
T0950 000:878 JLINK_WriteReg(R4, 0x00000000)  returns 0x00 (0000ms, 0566ms total)
T0950 000:878 JLINK_WriteReg(R5, 0x00000000)  returns 0x00 (0000ms, 0566ms total)
T0950 000:878 JLINK_WriteReg(R6, 0x00000000)  returns 0x00 (0000ms, 0566ms total)
T0950 000:878 JLINK_WriteReg(R7, 0x00000000)  returns 0x00 (0000ms, 0566ms total)
T0950 000:878 JLINK_WriteReg(R8, 0x00000000)  returns 0x00 (0000ms, 0566ms total)
T0950 000:878 JLINK_WriteReg(R9, 0x1FFFF1A8)  returns 0x00 (0000ms, 0566ms total)
T0950 000:878 JLINK_WriteReg(R10, 0x00000000)  returns 0x00 (0000ms, 0566ms total)
T0950 000:878 JLINK_WriteReg(R11, 0x00000000)  returns 0x00 (0000ms, 0566ms total)
T0950 000:878 JLINK_WriteReg(R12, 0x00000000)  returns 0x00 (0000ms, 0566ms total)
T0950 000:878 JLINK_WriteReg(R13 (SP), 0x1FFFF800)  returns 0x00 (0000ms, 0566ms total)
T0950 000:878 JLINK_WriteReg(R14, 0x1FFFF001)  returns 0x00 (0000ms, 0566ms total)
T0950 000:878 JLINK_WriteReg(R15 (PC), 0x1FFFF068)  returns 0x00 (0000ms, 0566ms total)
T0950 000:878 JLINK_WriteReg(XPSR, 0x01000000)  returns 0x00 (0000ms, 0566ms total)
T0950 000:878 JLINK_WriteReg(MSP, 0x1FFFF800)  returns 0x00 (0000ms, 0566ms total)
T0950 000:878 JLINK_WriteReg(PSP, 0x1FFFF800)  returns 0x00 (0000ms, 0566ms total)
T0950 000:878 JLINK_WriteReg(CFBP, 0x00000000)  returns 0x00 (0000ms, 0566ms total)
T0950 000:878 JLINK_SetBPEx(Addr = 0x1FFFF000, Type = 0xFFFFFFF2)  returns 0x00000003 (0000ms, 0566ms total)
T0950 000:878 JLINK_Go() -- CPU_WriteMem(4 bytes @ 0xE0002000) -- CPU_ReadMem(4 bytes @ 0xE0001000) -- CPU_WriteMem(4 bytes @ 0xE0001000) (0015ms, 0581ms total)
T0950 000:893 JLINK_IsHalted()  returns TRUE (0014ms, 0595ms total)
T0950 000:907 JLINK_ReadReg(R15 (PC))  returns 0x1FFFF000 (0000ms, 0581ms total)
T0950 000:907 JLINK_ClrBPEx(BPHandle = 0x00000003)  returns 0x00 (0000ms, 0581ms total)
T0950 000:907 JLINK_ReadReg(R0)  returns 0x00000000 (0000ms, 0581ms total)
T0950 000:922 JLINK_WriteMem(0x1FFFF000, 0x01AC Bytes, ...) - Data: 00 BE 0A E0 0D 78 2D 06 68 40 08 24 40 00 00 D3 ... -- CPU_WriteMem(428 bytes @ 0x1FFFF000)  returns 0x1AC (0014ms, 0595ms total)
T0950 000:936 JLINK_WriteReg(R0, 0x00000000)  returns 0x00 (0000ms, 0595ms total)
T0950 000:936 JLINK_WriteReg(R1, 0x007A1200)  returns 0x00 (0000ms, 0595ms total)
T0950 000:936 JLINK_WriteReg(R2, 0x00000002)  returns 0x00 (0000ms, 0595ms total)
T0950 000:936 JLINK_WriteReg(R3, 0x00000000)  returns 0x00 (0000ms, 0595ms total)
T0950 000:936 JLINK_WriteReg(R4, 0x00000000)  returns 0x00 (0000ms, 0595ms total)
T0950 000:936 JLINK_WriteReg(R5, 0x00000000)  returns 0x00 (0000ms, 0595ms total)
T0950 000:936 JLINK_WriteReg(R6, 0x00000000)  returns 0x00 (0001ms, 0596ms total)
T0950 000:937 JLINK_WriteReg(R7, 0x00000000)  returns 0x00 (0000ms, 0596ms total)
T0950 000:937 JLINK_WriteReg(R8, 0x00000000)  returns 0x00 (0000ms, 0596ms total)
T0950 000:937 JLINK_WriteReg(R9, 0x1FFFF1A8)  returns 0x00 (0000ms, 0596ms total)
T0950 000:937 JLINK_WriteReg(R10, 0x00000000)  returns 0x00 (0000ms, 0596ms total)
T0950 000:937 JLINK_WriteReg(R11, 0x00000000)  returns 0x00 (0000ms, 0596ms total)
T0950 000:937 JLINK_WriteReg(R12, 0x00000000)  returns 0x00 (0000ms, 0596ms total)
T0950 000:937 JLINK_WriteReg(R13 (SP), 0x1FFFF800)  returns 0x00 (0000ms, 0596ms total)
T0950 000:937 JLINK_WriteReg(R14, 0x1FFFF001)  returns 0x00 (0000ms, 0596ms total)
T0950 000:937 JLINK_WriteReg(R15 (PC), 0x1FFFF038)  returns 0x00 (0000ms, 0596ms total)
T0950 000:937 JLINK_WriteReg(XPSR, 0x01000000)  returns 0x00 (0000ms, 0596ms total)
T0950 000:937 JLINK_WriteReg(MSP, 0x1FFFF800)  returns 0x00 (0000ms, 0596ms total)
T0950 000:937 JLINK_WriteReg(PSP, 0x1FFFF800)  returns 0x00 (0000ms, 0596ms total)
T0950 000:937 JLINK_WriteReg(CFBP, 0x00000000)  returns 0x00 (0000ms, 0596ms total)
T0950 000:937 JLINK_SetBPEx(Addr = 0x1FFFF000, Type = 0xFFFFFFF2)  returns 0x00000004 (0000ms, 0596ms total)
T0950 000:937 JLINK_Go() -- CPU_WriteMem(4 bytes @ 0xE0002000) -- CPU_ReadMem(4 bytes @ 0xE0001000) -- CPU_WriteMem(4 bytes @ 0xE0001000) (0014ms, 0610ms total)
T0950 000:952 JLINK_IsHalted()  returns TRUE (0013ms, 0624ms total)
T0950 000:965 JLINK_ReadReg(R15 (PC))  returns 0x1FFFF000 (0000ms, 0611ms total)
T0950 000:965 JLINK_ClrBPEx(BPHandle = 0x00000004)  returns 0x00 (0000ms, 0611ms total)
T0950 000:965 JLINK_ReadReg(R0)  returns 0x00000000 (0000ms, 0611ms total)
T0950 000:966 JLINK_WriteMem(0x1FFFF1AC, 0x0100 Bytes, ...) - Data: 58 FF FF 1F 67 01 00 00 73 01 00 00 75 01 00 00 ... -- CPU_WriteMem(256 bytes @ 0x1FFFF1AC)  returns 0x100 (0008ms, 0619ms total)
T0950 000:974 JLINK_WriteReg(R0, 0x00000000)  returns 0x00 (0000ms, 0619ms total)
T0950 000:974 JLINK_WriteReg(R1, 0x00000100)  returns 0x00 (0000ms, 0619ms total)
T0950 000:974 JLINK_WriteReg(R2, 0x1FFFF1AC)  returns 0x00 (0000ms, 0619ms total)
T0950 000:974 JLINK_WriteReg(R3, 0x00000000)  returns 0x00 (0000ms, 0619ms total)
T0950 000:974 JLINK_WriteReg(R4, 0x00000000)  returns 0x00 (0000ms, 0619ms total)
T0950 000:974 JLINK_WriteReg(R5, 0x00000000)  returns 0x00 (0000ms, 0619ms total)
T0950 000:974 JLINK_WriteReg(R6, 0x00000000)  returns 0x00 (0000ms, 0619ms total)
T0950 000:974 JLINK_WriteReg(R7, 0x00000000)  returns 0x00 (0000ms, 0619ms total)
T0950 000:974 JLINK_WriteReg(R8, 0x00000000)  returns 0x00 (0000ms, 0619ms total)
T0950 000:974 JLINK_WriteReg(R9, 0x1FFFF1A8)  returns 0x00 (0000ms, 0619ms total)
T0950 000:974 JLINK_WriteReg(R10, 0x00000000)  returns 0x00 (0000ms, 0619ms total)
T0950 000:974 JLINK_WriteReg(R11, 0x00000000)  returns 0x00 (0000ms, 0619ms total)
T0950 000:974 JLINK_WriteReg(R12, 0x00000000)  returns 0x00 (0000ms, 0619ms total)
T0950 000:974 JLINK_WriteReg(R13 (SP), 0x1FFFF800)  returns 0x00 (0000ms, 0619ms total)
T0950 000:974 JLINK_WriteReg(R14, 0x1FFFF001)  returns 0x00 (0000ms, 0619ms total)
T0950 000:974 JLINK_WriteReg(R15 (PC), 0x1FFFF118)  returns 0x00 (0000ms, 0619ms total)
T0950 000:974 JLINK_WriteReg(XPSR, 0x01000000)  returns 0x00 (0000ms, 0619ms total)
T0950 000:974 JLINK_WriteReg(MSP, 0x1FFFF800)  returns 0x00 (0000ms, 0619ms total)
T0950 000:974 JLINK_WriteReg(PSP, 0x1FFFF800)  returns 0x00 (0000ms, 0619ms total)
T0950 000:974 JLINK_WriteReg(CFBP, 0x00000000)  returns 0x00 (0000ms, 0619ms total)
T0950 000:974 JLINK_SetBPEx(Addr = 0x1FFFF000, Type = 0xFFFFFFF2)  returns 0x00000005 (0000ms, 0619ms total)
T0950 000:974 JLINK_Go() -- CPU_WriteMem(4 bytes @ 0xE0002000) -- CPU_ReadMem(4 bytes @ 0xE0001000) -- CPU_WriteMem(4 bytes @ 0xE0001000) (0012ms, 0631ms total)
T0950 000:986 JLINK_IsHalted()  returns FALSE (0003ms, 0634ms total)
T0950 001:009 JLINK_IsHalted()  returns TRUE (0013ms, 0644ms total)
T0950 001:022 JLINK_ReadReg(R15 (PC))  returns 0x1FFFF000 (0000ms, 0631ms total)
T0950 001:022 JLINK_ClrBPEx(BPHandle = 0x00000005)  returns 0x00 (0000ms, 0631ms total)
T0950 001:022 JLINK_ReadReg(R0)  returns 0x00000000 (0000ms, 0631ms total)
T0950 001:023 JLINK_WriteMem(0x1FFFF1AC, 0x0100 Bytes, ...) - Data: 8C 1C 00 00 10 3A 02 D3 78 C8 78 C1 FA D8 52 07 ... -- CPU_WriteMem(256 bytes @ 0x1FFFF1AC)  returns 0x100 (0009ms, 0640ms total)
T0950 001:032 JLINK_WriteReg(R0, 0x00000100)  returns 0x00 (0000ms, 0640ms total)
T0950 001:032 JLINK_WriteReg(R1, 0x00000100)  returns 0x00 (0000ms, 0640ms total)
T0950 001:032 JLINK_WriteReg(R2, 0x1FFFF1AC)  returns 0x00 (0000ms, 0640ms total)
T0950 001:032 JLINK_WriteReg(R3, 0x00000000)  returns 0x00 (0000ms, 0640ms total)
T0950 001:032 JLINK_WriteReg(R4, 0x00000000)  returns 0x00 (0000ms, 0640ms total)
T0950 001:032 JLINK_WriteReg(R5, 0x00000000)  returns 0x00 (0000ms, 0640ms total)
T0950 001:032 JLINK_WriteReg(R6, 0x00000000)  returns 0x00 (0000ms, 0640ms total)
T0950 001:032 JLINK_WriteReg(R7, 0x00000000)  returns 0x00 (0000ms, 0640ms total)
T0950 001:032 JLINK_WriteReg(R8, 0x00000000)  returns 0x00 (0000ms, 0640ms total)
T0950 001:032 JLINK_WriteReg(R9, 0x1FFFF1A8)  returns 0x00 (0000ms, 0640ms total)
T0950 001:032 JLINK_WriteReg(R10, 0x00000000)  returns 0x00 (0000ms, 0640ms total)
T0950 001:032 JLINK_WriteReg(R11, 0x00000000)  returns 0x00 (0000ms, 0640ms total)
T0950 001:032 JLINK_WriteReg(R12, 0x00000000)  returns 0x00 (0000ms, 0640ms total)
T0950 001:032 JLINK_WriteReg(R13 (SP), 0x1FFFF800)  returns 0x00 (0000ms, 0640ms total)
T0950 001:032 JLINK_WriteReg(R14, 0x1FFFF001)  returns 0x00 (0000ms, 0640ms total)
T0950 001:032 JLINK_WriteReg(R15 (PC), 0x1FFFF118)  returns 0x00 (0000ms, 0640ms total)
T0950 001:032 JLINK_WriteReg(XPSR, 0x01000000)  returns 0x00 (0000ms, 0640ms total)
T0950 001:032 JLINK_WriteReg(MSP, 0x1FFFF800)  returns 0x00 (0000ms, 0640ms total)
T0950 001:032 JLINK_WriteReg(PSP, 0x1FFFF800)  returns 0x00 (0000ms, 0640ms total)
T0950 001:032 JLINK_WriteReg(CFBP, 0x00000000)  returns 0x00 (0000ms, 0640ms total)
T0950 001:032 JLINK_SetBPEx(Addr = 0x1FFFF000, Type = 0xFFFFFFF2)  returns 0x00000006 (0000ms, 0640ms total)
T0950 001:032 JLINK_Go() -- CPU_WriteMem(4 bytes @ 0xE0002000) -- CPU_ReadMem(4 bytes @ 0xE0001000) -- CPU_WriteMem(4 bytes @ 0xE0001000) (0013ms, 0653ms total)
T0950 001:045 JLINK_IsHalted()  returns FALSE (0002ms, 0655ms total)
T0950 001:057 JLINK_IsHalted()  returns TRUE (0016ms, 0669ms total)
T0950 001:073 JLINK_ReadReg(R15 (PC))  returns 0x1FFFF000 (0000ms, 0653ms total)
T0950 001:073 JLINK_ClrBPEx(BPHandle = 0x00000006)  returns 0x00 (0000ms, 0653ms total)
T0950 001:073 JLINK_ReadReg(R0)  returns 0x00000000 (0000ms, 0653ms total)
T0950 001:074 JLINK_WriteMem(0x1FFFF1AC, 0x0100 Bytes, ...) - Data: 43 08 8B 42 31 D3 03 09 8B 42 1C D3 03 0A 8B 42 ... -- CPU_WriteMem(256 bytes @ 0x1FFFF1AC)  returns 0x100 (0009ms, 0662ms total)
T0950 001:083 JLINK_WriteReg(R0, 0x00000200)  returns 0x00 (0000ms, 0662ms total)
T0950 001:083 JLINK_WriteReg(R1, 0x00000100)  returns 0x00 (0000ms, 0662ms total)
T0950 001:083 JLINK_WriteReg(R2, 0x1FFFF1AC)  returns 0x00 (0000ms, 0662ms total)
T0950 001:083 JLINK_WriteReg(R3, 0x00000000)  returns 0x00 (0000ms, 0662ms total)
T0950 001:083 JLINK_WriteReg(R4, 0x00000000)  returns 0x00 (0000ms, 0662ms total)
T0950 001:083 JLINK_WriteReg(R5, 0x00000000)  returns 0x00 (0000ms, 0662ms total)
T0950 001:083 JLINK_WriteReg(R6, 0x00000000)  returns 0x00 (0000ms, 0662ms total)
T0950 001:083 JLINK_WriteReg(R7, 0x00000000)  returns 0x00 (0000ms, 0662ms total)
T0950 001:083 JLINK_WriteReg(R8, 0x00000000)  returns 0x00 (0000ms, 0662ms total)
T0950 001:083 JLINK_WriteReg(R9, 0x1FFFF1A8)  returns 0x00 (0000ms, 0662ms total)
T0950 001:083 JLINK_WriteReg(R10, 0x00000000)  returns 0x00 (0000ms, 0662ms total)
T0950 001:083 JLINK_WriteReg(R11, 0x00000000)  returns 0x00 (0000ms, 0662ms total)
T0950 001:083 JLINK_WriteReg(R12, 0x00000000)  returns 0x00 (0000ms, 0662ms total)
T0950 001:083 JLINK_WriteReg(R13 (SP), 0x1FFFF800)  returns 0x00 (0000ms, 0662ms total)
T0950 001:083 JLINK_WriteReg(R14, 0x1FFFF001)  returns 0x00 (0000ms, 0662ms total)
T0950 001:083 JLINK_WriteReg(R15 (PC), 0x1FFFF118)  returns 0x00 (0000ms, 0662ms total)
T0950 001:083 JLINK_WriteReg(XPSR, 0x01000000)  returns 0x00 (0000ms, 0662ms total)
T0950 001:083 JLINK_WriteReg(MSP, 0x1FFFF800)  returns 0x00 (0000ms, 0662ms total)
T0950 001:083 JLINK_WriteReg(PSP, 0x1FFFF800)  returns 0x00 (0000ms, 0662ms total)
T0950 001:083 JLINK_WriteReg(CFBP, 0x00000000)  returns 0x00 (0000ms, 0662ms total)
T0950 001:083 JLINK_SetBPEx(Addr = 0x1FFFF000, Type = 0xFFFFFFF2)  returns 0x00000007 (0001ms, 0663ms total)
T0950 001:084 JLINK_Go() -- CPU_WriteMem(4 bytes @ 0xE0002000) -- CPU_ReadMem(4 bytes @ 0xE0001000) -- CPU_WriteMem(4 bytes @ 0xE0001000) (0014ms, 0677ms total)
T0950 001:098 JLINK_IsHalted()  returns FALSE (0002ms, 0679ms total)
T0950 001:102 JLINK_IsHalted()  returns FALSE (0002ms, 0679ms total)
T0950 001:105 JLINK_IsHalted()  returns FALSE (0002ms, 0679ms total)
T0950 001:108 JLINK_IsHalted()  returns TRUE (0013ms, 0690ms total)
T0950 001:121 JLINK_ReadReg(R15 (PC))  returns 0x1FFFF000 (0000ms, 0677ms total)
T0950 001:121 JLINK_ClrBPEx(BPHandle = 0x00000007)  returns 0x00 (0000ms, 0677ms total)
T0950 001:121 JLINK_ReadReg(R0)  returns 0x00000000 (0000ms, 0677ms total)
T0950 001:122 JLINK_WriteMem(0x1FFFF1AC, 0x0100 Bytes, ...) - Data: C0 1A 52 41 D9 D2 43 08 8B 42 01 D3 4B 00 C0 1A ... -- CPU_WriteMem(256 bytes @ 0x1FFFF1AC)  returns 0x100 (0008ms, 0685ms total)
T0950 001:130 JLINK_WriteReg(R0, 0x00000300)  returns 0x00 (0000ms, 0685ms total)
T0950 001:130 JLINK_WriteReg(R1, 0x00000100)  returns 0x00 (0000ms, 0685ms total)
T0950 001:130 JLINK_WriteReg(R2, 0x1FFFF1AC)  returns 0x00 (0000ms, 0685ms total)
T0950 001:130 JLINK_WriteReg(R3, 0x00000000)  returns 0x00 (0000ms, 0685ms total)
T0950 001:130 JLINK_WriteReg(R4, 0x00000000)  returns 0x00 (0000ms, 0685ms total)
T0950 001:130 JLINK_WriteReg(R5, 0x00000000)  returns 0x00 (0000ms, 0685ms total)
T0950 001:130 JLINK_WriteReg(R6, 0x00000000)  returns 0x00 (0000ms, 0685ms total)
T0950 001:130 JLINK_WriteReg(R7, 0x00000000)  returns 0x00 (0000ms, 0685ms total)
T0950 001:130 JLINK_WriteReg(R8, 0x00000000)  returns 0x00 (0000ms, 0685ms total)
T0950 001:130 JLINK_WriteReg(R9, 0x1FFFF1A8)  returns 0x00 (0001ms, 0686ms total)
T0950 001:131 JLINK_WriteReg(R10, 0x00000000)  returns 0x00 (0000ms, 0686ms total)
T0950 001:131 JLINK_WriteReg(R11, 0x00000000)  returns 0x00 (0000ms, 0686ms total)
T0950 001:131 JLINK_WriteReg(R12, 0x00000000)  returns 0x00 (0000ms, 0686ms total)
T0950 001:131 JLINK_WriteReg(R13 (SP), 0x1FFFF800)  returns 0x00 (0000ms, 0686ms total)
T0950 001:131 JLINK_WriteReg(R14, 0x1FFFF001)  returns 0x00 (0000ms, 0686ms total)
T0950 001:131 JLINK_WriteReg(R15 (PC), 0x1FFFF118)  returns 0x00 (0000ms, 0686ms total)
T0950 001:131 JLINK_WriteReg(XPSR, 0x01000000)  returns 0x00 (0000ms, 0686ms total)
T0950 001:131 JLINK_WriteReg(MSP, 0x1FFFF800)  returns 0x00 (0000ms, 0686ms total)
T0950 001:131 JLINK_WriteReg(PSP, 0x1FFFF800)  returns 0x00 (0000ms, 0686ms total)
T0950 001:131 JLINK_WriteReg(CFBP, 0x00000000)  returns 0x00 (0000ms, 0686ms total)
T0950 001:131 JLINK_SetBPEx(Addr = 0x1FFFF000, Type = 0xFFFFFFF2)  returns 0x00000008 (0000ms, 0686ms total)
T0950 001:131 JLINK_Go() -- CPU_WriteMem(4 bytes @ 0xE0002000) -- CPU_ReadMem(4 bytes @ 0xE0001000) -- CPU_WriteMem(4 bytes @ 0xE0001000) (0012ms, 0698ms total)
T0950 001:144 JLINK_IsHalted()  returns FALSE (0002ms, 0700ms total)
T0950 001:150 JLINK_IsHalted()  returns FALSE (0002ms, 0700ms total)
T0950 001:153 JLINK_IsHalted()  returns FALSE (0001ms, 0699ms total)
T0950 001:156 JLINK_IsHalted()  returns TRUE (0013ms, 0711ms total)
T0950 001:169 JLINK_ReadReg(R15 (PC))  returns 0x1FFFF000 (0000ms, 0698ms total)
T0950 001:169 JLINK_ClrBPEx(BPHandle = 0x00000008)  returns 0x00 (0000ms, 0698ms total)
T0950 001:169 JLINK_ReadReg(R0)  returns 0x00000000 (0000ms, 0698ms total)
T0950 001:170 JLINK_WriteMem(0x1FFFF1AC, 0x0100 Bytes, ...) - Data: FF FF FF FF FF FF FF FF FF FF FF FF FF FF FE FE ... -- CPU_WriteMem(256 bytes @ 0x1FFFF1AC)  returns 0x100 (0008ms, 0706ms total)
T0950 001:178 JLINK_WriteReg(R0, 0x00000400)  returns 0x00 (0000ms, 0706ms total)
T0950 001:178 JLINK_WriteReg(R1, 0x00000100)  returns 0x00 (0000ms, 0706ms total)
T0950 001:178 JLINK_WriteReg(R2, 0x1FFFF1AC)  returns 0x00 (0000ms, 0706ms total)
T0950 001:178 JLINK_WriteReg(R3, 0x00000000)  returns 0x00 (0000ms, 0706ms total)
T0950 001:178 JLINK_WriteReg(R4, 0x00000000)  returns 0x00 (0000ms, 0706ms total)
T0950 001:178 JLINK_WriteReg(R5, 0x00000000)  returns 0x00 (0000ms, 0706ms total)
T0950 001:178 JLINK_WriteReg(R6, 0x00000000)  returns 0x00 (0000ms, 0706ms total)
T0950 001:178 JLINK_WriteReg(R7, 0x00000000)  returns 0x00 (0000ms, 0706ms total)
T0950 001:178 JLINK_WriteReg(R8, 0x00000000)  returns 0x00 (0000ms, 0706ms total)
T0950 001:178 JLINK_WriteReg(R9, 0x1FFFF1A8)  returns 0x00 (0001ms, 0707ms total)
T0950 001:179 JLINK_WriteReg(R10, 0x00000000)  returns 0x00 (0000ms, 0707ms total)
T0950 001:179 JLINK_WriteReg(R11, 0x00000000)  returns 0x00 (0000ms, 0707ms total)
T0950 001:179 JLINK_WriteReg(R12, 0x00000000)  returns 0x00 (0000ms, 0707ms total)
T0950 001:179 JLINK_WriteReg(R13 (SP), 0x1FFFF800)  returns 0x00 (0000ms, 0707ms total)
T0950 001:179 JLINK_WriteReg(R14, 0x1FFFF001)  returns 0x00 (0000ms, 0707ms total)
T0950 001:179 JLINK_WriteReg(R15 (PC), 0x1FFFF118)  returns 0x00 (0000ms, 0707ms total)
T0950 001:179 JLINK_WriteReg(XPSR, 0x01000000)  returns 0x00 (0000ms, 0707ms total)
T0950 001:179 JLINK_WriteReg(MSP, 0x1FFFF800)  returns 0x00 (0000ms, 0707ms total)
T0950 001:179 JLINK_WriteReg(PSP, 0x1FFFF800)  returns 0x00 (0000ms, 0707ms total)
T0950 001:179 JLINK_WriteReg(CFBP, 0x00000000)  returns 0x00 (0000ms, 0707ms total)
T0950 001:179 JLINK_SetBPEx(Addr = 0x1FFFF000, Type = 0xFFFFFFF2)  returns 0x00000009 (0000ms, 0707ms total)
T0950 001:179 JLINK_Go() -- CPU_WriteMem(4 bytes @ 0xE0002000) -- CPU_ReadMem(4 bytes @ 0xE0001000) -- CPU_WriteMem(4 bytes @ 0xE0001000) (0013ms, 0720ms total)
T0950 001:192 JLINK_IsHalted()  returns FALSE (0002ms, 0722ms total)
T0950 001:200 JLINK_IsHalted()  returns FALSE (0002ms, 0722ms total)
T0950 001:203 JLINK_IsHalted()  returns TRUE (0013ms, 0733ms total)
T0950 001:216 JLINK_ReadReg(R15 (PC))  returns 0x1FFFF000 (0000ms, 0720ms total)
T0950 001:217 JLINK_ClrBPEx(BPHandle = 0x00000009)  returns 0x00 (0000ms, 0721ms total)
T0950 001:217 JLINK_ReadReg(R0)  returns 0x00000000 (0000ms, 0721ms total)
T0950 001:218 JLINK_WriteMem(0x1FFFF1AC, 0x0100 Bytes, ...) - Data: 94 FB FF 1F 9C FC FF 1F FC F0 FF 1F F8 B5 7E 4D ... -- CPU_WriteMem(256 bytes @ 0x1FFFF1AC)  returns 0x100 (0009ms, 0730ms total)
T0950 001:227 JLINK_WriteReg(R0, 0x00000500)  returns 0x00 (0000ms, 0730ms total)
T0950 001:227 JLINK_WriteReg(R1, 0x00000100)  returns 0x00 (0000ms, 0730ms total)
T0950 001:227 JLINK_WriteReg(R2, 0x1FFFF1AC)  returns 0x00 (0000ms, 0730ms total)
T0950 001:227 JLINK_WriteReg(R3, 0x00000000)  returns 0x00 (0001ms, 0731ms total)
T0950 001:228 JLINK_WriteReg(R4, 0x00000000)  returns 0x00 (0000ms, 0731ms total)
T0950 001:228 JLINK_WriteReg(R5, 0x00000000)  returns 0x00 (0000ms, 0731ms total)
T0950 001:228 JLINK_WriteReg(R6, 0x00000000)  returns 0x00 (0000ms, 0731ms total)
T0950 001:228 JLINK_WriteReg(R7, 0x00000000)  returns 0x00 (0000ms, 0731ms total)
T0950 001:228 JLINK_WriteReg(R8, 0x00000000)  returns 0x00 (0000ms, 0731ms total)
T0950 001:228 JLINK_WriteReg(R9, 0x1FFFF1A8)  returns 0x00 (0000ms, 0731ms total)
T0950 001:228 JLINK_WriteReg(R10, 0x00000000)  returns 0x00 (0000ms, 0731ms total)
T0950 001:228 JLINK_WriteReg(R11, 0x00000000)  returns 0x00 (0000ms, 0731ms total)
T0950 001:228 JLINK_WriteReg(R12, 0x00000000)  returns 0x00 (0000ms, 0731ms total)
T0950 001:228 JLINK_WriteReg(R13 (SP), 0x1FFFF800)  returns 0x00 (0000ms, 0731ms total)
T0950 001:228 JLINK_WriteReg(R14, 0x1FFFF001)  returns 0x00 (0000ms, 0731ms total)
T0950 001:228 JLINK_WriteReg(R15 (PC), 0x1FFFF118)  returns 0x00 (0000ms, 0731ms total)
T0950 001:228 JLINK_WriteReg(XPSR, 0x01000000)  returns 0x00 (0000ms, 0731ms total)
T0950 001:228 JLINK_WriteReg(MSP, 0x1FFFF800)  returns 0x00 (0000ms, 0731ms total)
T0950 001:228 JLINK_WriteReg(PSP, 0x1FFFF800)  returns 0x00 (0000ms, 0731ms total)
T0950 001:228 JLINK_WriteReg(CFBP, 0x00000000)  returns 0x00 (0000ms, 0731ms total)
T0950 001:228 JLINK_SetBPEx(Addr = 0x1FFFF000, Type = 0xFFFFFFF2)  returns 0x0000000A (0000ms, 0731ms total)
T0950 001:228 JLINK_Go() -- CPU_WriteMem(4 bytes @ 0xE0002000) -- CPU_ReadMem(4 bytes @ 0xE0001000) -- CPU_WriteMem(4 bytes @ 0xE0001000) (0015ms, 0746ms total)
T0950 001:243 JLINK_IsHalted()  returns FALSE (0002ms, 0748ms total)
T0950 001:252 JLINK_IsHalted()  returns FALSE (0002ms, 0748ms total)
T0950 001:255 JLINK_IsHalted()  returns TRUE (0014ms, 0760ms total)
T0950 001:269 JLINK_ReadReg(R15 (PC))  returns 0x1FFFF000 (0000ms, 0746ms total)
T0950 001:269 JLINK_ClrBPEx(BPHandle = 0x0000000A)  returns 0x00 (0000ms, 0746ms total)
T0950 001:269 JLINK_ReadReg(R0)  returns 0x00000000 (0000ms, 0746ms total)
T0950 001:270 JLINK_WriteMem(0x1FFFF1AC, 0x0100 Bytes, ...) - Data: 0C FA 28 79 20 28 1C D1 05 20 60 70 27 70 18 E0 ... -- CPU_WriteMem(256 bytes @ 0x1FFFF1AC)  returns 0x100 (0009ms, 0755ms total)
T0950 001:279 JLINK_WriteReg(R0, 0x00000600)  returns 0x00 (0001ms, 0756ms total)
T0950 001:280 JLINK_WriteReg(R1, 0x00000100)  returns 0x00 (0000ms, 0756ms total)
T0950 001:280 JLINK_WriteReg(R2, 0x1FFFF1AC)  returns 0x00 (0000ms, 0756ms total)
T0950 001:280 JLINK_WriteReg(R3, 0x00000000)  returns 0x00 (0000ms, 0756ms total)
T0950 001:280 JLINK_WriteReg(R4, 0x00000000)  returns 0x00 (0000ms, 0756ms total)
T0950 001:280 JLINK_WriteReg(R5, 0x00000000)  returns 0x00 (0000ms, 0756ms total)
T0950 001:280 JLINK_WriteReg(R6, 0x00000000)  returns 0x00 (0000ms, 0756ms total)
T0950 001:280 JLINK_WriteReg(R7, 0x00000000)  returns 0x00 (0000ms, 0756ms total)
T0950 001:280 JLINK_WriteReg(R8, 0x00000000)  returns 0x00 (0000ms, 0756ms total)
T0950 001:280 JLINK_WriteReg(R9, 0x1FFFF1A8)  returns 0x00 (0000ms, 0756ms total)
T0950 001:280 JLINK_WriteReg(R10, 0x00000000)  returns 0x00 (0000ms, 0756ms total)
T0950 001:280 JLINK_WriteReg(R11, 0x00000000)  returns 0x00 (0000ms, 0756ms total)
T0950 001:280 JLINK_WriteReg(R12, 0x00000000)  returns 0x00 (0000ms, 0756ms total)
T0950 001:280 JLINK_WriteReg(R13 (SP), 0x1FFFF800)  returns 0x00 (0000ms, 0756ms total)
T0950 001:280 JLINK_WriteReg(R14, 0x1FFFF001)  returns 0x00 (0000ms, 0756ms total)
T0950 001:280 JLINK_WriteReg(R15 (PC), 0x1FFFF118)  returns 0x00 (0000ms, 0756ms total)
T0950 001:280 JLINK_WriteReg(XPSR, 0x01000000)  returns 0x00 (0000ms, 0756ms total)
T0950 001:280 JLINK_WriteReg(MSP, 0x1FFFF800)  returns 0x00 (0000ms, 0756ms total)
T0950 001:280 JLINK_WriteReg(PSP, 0x1FFFF800)  returns 0x00 (0000ms, 0756ms total)
T0950 001:280 JLINK_WriteReg(CFBP, 0x00000000)  returns 0x00 (0000ms, 0756ms total)
T0950 001:280 JLINK_SetBPEx(Addr = 0x1FFFF000, Type = 0xFFFFFFF2)  returns 0x0000000B (0000ms, 0756ms total)
T0950 001:280 JLINK_Go() -- CPU_WriteMem(4 bytes @ 0xE0002000) -- CPU_ReadMem(4 bytes @ 0xE0001000) -- CPU_WriteMem(4 bytes @ 0xE0001000) (0015ms, 0771ms total)
T0950 001:295 JLINK_IsHalted()  returns FALSE (0002ms, 0773ms total)
T0950 001:298 JLINK_IsHalted()  returns FALSE (0002ms, 0773ms total)
T0950 001:301 JLINK_IsHalted()  returns FALSE (0001ms, 0772ms total)
T0950 001:304 JLINK_IsHalted()  returns FALSE (0002ms, 0773ms total)
T0950 001:307 JLINK_IsHalted()  returns TRUE (0013ms, 0784ms total)
T0950 001:320 JLINK_ReadReg(R15 (PC))  returns 0x1FFFF000 (0000ms, 0771ms total)
T0950 001:320 JLINK_ClrBPEx(BPHandle = 0x0000000B)  returns 0x00 (0000ms, 0771ms total)
T0950 001:320 JLINK_ReadReg(R0)  returns 0x00000000 (0000ms, 0771ms total)
T0950 001:321 JLINK_WriteMem(0x1FFFF1AC, 0x0100 Bytes, ...) - Data: 00 F0 4E F8 F6 E7 00 00 94 FA FF 1F 6C F0 FF 1F ... -- CPU_WriteMem(256 bytes @ 0x1FFFF1AC)  returns 0x100 (0008ms, 0779ms total)
T0950 001:329 JLINK_WriteReg(R0, 0x00000700)  returns 0x00 (0000ms, 0779ms total)
T0950 001:329 JLINK_WriteReg(R1, 0x00000100)  returns 0x00 (0000ms, 0779ms total)
T0950 001:329 JLINK_WriteReg(R2, 0x1FFFF1AC)  returns 0x00 (0000ms, 0779ms total)
T0950 001:329 JLINK_WriteReg(R3, 0x00000000)  returns 0x00 (0000ms, 0779ms total)
T0950 001:329 JLINK_WriteReg(R4, 0x00000000)  returns 0x00 (0000ms, 0779ms total)
T0950 001:329 JLINK_WriteReg(R5, 0x00000000)  returns 0x00 (0000ms, 0779ms total)
T0950 001:329 JLINK_WriteReg(R6, 0x00000000)  returns 0x00 (0000ms, 0779ms total)
T0950 001:329 JLINK_WriteReg(R7, 0x00000000)  returns 0x00 (0000ms, 0779ms total)
T0950 001:329 JLINK_WriteReg(R8, 0x00000000)  returns 0x00 (0000ms, 0779ms total)
T0950 001:329 JLINK_WriteReg(R9, 0x1FFFF1A8)  returns 0x00 (0001ms, 0780ms total)
T0950 001:330 JLINK_WriteReg(R10, 0x00000000)  returns 0x00 (0000ms, 0780ms total)
T0950 001:330 JLINK_WriteReg(R11, 0x00000000)  returns 0x00 (0000ms, 0780ms total)
T0950 001:330 JLINK_WriteReg(R12, 0x00000000)  returns 0x00 (0000ms, 0780ms total)
T0950 001:330 JLINK_WriteReg(R13 (SP), 0x1FFFF800)  returns 0x00 (0000ms, 0780ms total)
T0950 001:330 JLINK_WriteReg(R14, 0x1FFFF001)  returns 0x00 (0000ms, 0780ms total)
T0950 001:330 JLINK_WriteReg(R15 (PC), 0x1FFFF118)  returns 0x00 (0000ms, 0780ms total)
T0950 001:330 JLINK_WriteReg(XPSR, 0x01000000)  returns 0x00 (0000ms, 0780ms total)
T0950 001:330 JLINK_WriteReg(MSP, 0x1FFFF800)  returns 0x00 (0000ms, 0780ms total)
T0950 001:330 JLINK_WriteReg(PSP, 0x1FFFF800)  returns 0x00 (0000ms, 0780ms total)
T0950 001:330 JLINK_WriteReg(CFBP, 0x00000000)  returns 0x00 (0000ms, 0780ms total)
T0950 001:330 JLINK_SetBPEx(Addr = 0x1FFFF000, Type = 0xFFFFFFF2)  returns 0x0000000C (0000ms, 0780ms total)
T0950 001:330 JLINK_Go() -- CPU_WriteMem(4 bytes @ 0xE0002000) -- CPU_ReadMem(4 bytes @ 0xE0001000) -- CPU_WriteMem(4 bytes @ 0xE0001000) (0013ms, 0793ms total)
T0950 001:343 JLINK_IsHalted()  returns FALSE (0002ms, 0795ms total)
T0950 001:346 JLINK_IsHalted()  returns FALSE (0002ms, 0795ms total)
T0950 001:349 JLINK_IsHalted()  returns FALSE (0002ms, 0795ms total)
T0950 001:352 JLINK_IsHalted()  returns FALSE (0002ms, 0795ms total)
T0950 001:355 JLINK_IsHalted()  returns TRUE (0013ms, 0806ms total)
T0950 001:368 JLINK_ReadReg(R15 (PC))  returns 0x1FFFF000 (0000ms, 0793ms total)
T0950 001:368 JLINK_ClrBPEx(BPHandle = 0x0000000C)  returns 0x00 (0000ms, 0793ms total)
T0950 001:368 JLINK_ReadReg(R0)  returns 0x00000000 (0000ms, 0793ms total)
T0950 001:369 JLINK_WriteMem(0x1FFFF1AC, 0x0100 Bytes, ...) - Data: 00 E0 A5 70 01 20 00 F0 99 FF 08 22 16 A1 38 46 ... -- CPU_WriteMem(256 bytes @ 0x1FFFF1AC)  returns 0x100 (0009ms, 0802ms total)
T0950 001:378 JLINK_WriteReg(R0, 0x00000800)  returns 0x00 (0000ms, 0802ms total)
T0950 001:378 JLINK_WriteReg(R1, 0x00000100)  returns 0x00 (0000ms, 0802ms total)
T0950 001:378 JLINK_WriteReg(R2, 0x1FFFF1AC)  returns 0x00 (0000ms, 0802ms total)
T0950 001:378 JLINK_WriteReg(R3, 0x00000000)  returns 0x00 (0000ms, 0802ms total)
T0950 001:378 JLINK_WriteReg(R4, 0x00000000)  returns 0x00 (0000ms, 0802ms total)
T0950 001:378 JLINK_WriteReg(R5, 0x00000000)  returns 0x00 (0000ms, 0802ms total)
T0950 001:378 JLINK_WriteReg(R6, 0x00000000)  returns 0x00 (0000ms, 0802ms total)
T0950 001:378 JLINK_WriteReg(R7, 0x00000000)  returns 0x00 (0000ms, 0802ms total)
T0950 001:378 JLINK_WriteReg(R8, 0x00000000)  returns 0x00 (0000ms, 0802ms total)
T0950 001:378 JLINK_WriteReg(R9, 0x1FFFF1A8)  returns 0x00 (0000ms, 0802ms total)
T0950 001:378 JLINK_WriteReg(R10, 0x00000000)  returns 0x00 (0000ms, 0802ms total)
T0950 001:378 JLINK_WriteReg(R11, 0x00000000)  returns 0x00 (0000ms, 0802ms total)
T0950 001:378 JLINK_WriteReg(R12, 0x00000000)  returns 0x00 (0000ms, 0802ms total)
T0950 001:378 JLINK_WriteReg(R13 (SP), 0x1FFFF800)  returns 0x00 (0000ms, 0802ms total)
T0950 001:378 JLINK_WriteReg(R14, 0x1FFFF001)  returns 0x00 (0000ms, 0802ms total)
T0950 001:378 JLINK_WriteReg(R15 (PC), 0x1FFFF118)  returns 0x00 (0000ms, 0802ms total)
T0950 001:378 JLINK_WriteReg(XPSR, 0x01000000)  returns 0x00 (0000ms, 0802ms total)
T0950 001:378 JLINK_WriteReg(MSP, 0x1FFFF800)  returns 0x00 (0000ms, 0802ms total)
T0950 001:378 JLINK_WriteReg(PSP, 0x1FFFF800)  returns 0x00 (0000ms, 0802ms total)
T0950 001:378 JLINK_WriteReg(CFBP, 0x00000000)  returns 0x00 (0001ms, 0803ms total)
T0950 001:379 JLINK_SetBPEx(Addr = 0x1FFFF000, Type = 0xFFFFFFF2)  returns 0x0000000D (0000ms, 0803ms total)
T0950 001:379 JLINK_Go() -- CPU_WriteMem(4 bytes @ 0xE0002000) -- CPU_ReadMem(4 bytes @ 0xE0001000) -- CPU_WriteMem(4 bytes @ 0xE0001000) (0012ms, 0815ms total)
T0950 001:391 JLINK_IsHalted()  returns FALSE (0002ms, 0817ms total)
T0950 001:398 JLINK_IsHalted()  returns FALSE (0002ms, 0817ms total)
T0950 001:401 JLINK_IsHalted()  returns TRUE (0014ms, 0829ms total)
T0950 001:415 JLINK_ReadReg(R15 (PC))  returns 0x1FFFF000 (0000ms, 0815ms total)
T0950 001:415 JLINK_ClrBPEx(BPHandle = 0x0000000D)  returns 0x00 (0000ms, 0815ms total)
T0950 001:415 JLINK_ReadReg(R0)  returns 0x00000000 (0000ms, 0815ms total)
T0950 001:416 JLINK_WriteMem(0x1FFFF1AC, 0x0100 Bytes, ...) - Data: FB 22 11 40 01 70 01 78 89 06 89 0E 80 31 01 70 ... -- CPU_WriteMem(256 bytes @ 0x1FFFF1AC)  returns 0x100 (0009ms, 0824ms total)
T0950 001:425 JLINK_WriteReg(R0, 0x00000900)  returns 0x00 (0000ms, 0824ms total)
T0950 001:425 JLINK_WriteReg(R1, 0x00000100)  returns 0x00 (0000ms, 0824ms total)
T0950 001:425 JLINK_WriteReg(R2, 0x1FFFF1AC)  returns 0x00 (0000ms, 0824ms total)
T0950 001:425 JLINK_WriteReg(R3, 0x00000000)  returns 0x00 (0000ms, 0824ms total)
T0950 001:425 JLINK_WriteReg(R4, 0x00000000)  returns 0x00 (0000ms, 0824ms total)
T0950 001:425 JLINK_WriteReg(R5, 0x00000000)  returns 0x00 (0000ms, 0824ms total)
T0950 001:425 JLINK_WriteReg(R6, 0x00000000)  returns 0x00 (0000ms, 0824ms total)
T0950 001:425 JLINK_WriteReg(R7, 0x00000000)  returns 0x00 (0000ms, 0824ms total)
T0950 001:425 JLINK_WriteReg(R8, 0x00000000)  returns 0x00 (0000ms, 0824ms total)
T0950 001:425 JLINK_WriteReg(R9, 0x1FFFF1A8)  returns 0x00 (0000ms, 0824ms total)
T0950 001:425 JLINK_WriteReg(R10, 0x00000000)  returns 0x00 (0000ms, 0824ms total)
T0950 001:425 JLINK_WriteReg(R11, 0x00000000)  returns 0x00 (0001ms, 0825ms total)
T0950 001:426 JLINK_WriteReg(R12, 0x00000000)  returns 0x00 (0000ms, 0825ms total)
T0950 001:426 JLINK_WriteReg(R13 (SP), 0x1FFFF800)  returns 0x00 (0000ms, 0825ms total)
T0950 001:426 JLINK_WriteReg(R14, 0x1FFFF001)  returns 0x00 (0000ms, 0825ms total)
T0950 001:426 JLINK_WriteReg(R15 (PC), 0x1FFFF118)  returns 0x00 (0000ms, 0825ms total)
T0950 001:426 JLINK_WriteReg(XPSR, 0x01000000)  returns 0x00 (0000ms, 0825ms total)
T0950 001:426 JLINK_WriteReg(MSP, 0x1FFFF800)  returns 0x00 (0000ms, 0825ms total)
T0950 001:426 JLINK_WriteReg(PSP, 0x1FFFF800)  returns 0x00 (0000ms, 0825ms total)
T0950 001:426 JLINK_WriteReg(CFBP, 0x00000000)  returns 0x00 (0000ms, 0825ms total)
T0950 001:426 JLINK_SetBPEx(Addr = 0x1FFFF000, Type = 0xFFFFFFF2)  returns 0x0000000E (0000ms, 0825ms total)
T0950 001:426 JLINK_Go() -- CPU_WriteMem(4 bytes @ 0xE0002000) -- CPU_ReadMem(4 bytes @ 0xE0001000) -- CPU_WriteMem(4 bytes @ 0xE0001000) (0015ms, 0840ms total)
T0950 001:441 JLINK_IsHalted()  returns FALSE (0002ms, 0842ms total)
T0950 001:453 JLINK_IsHalted()  returns TRUE (0013ms, 0853ms total)
T0950 001:466 JLINK_ReadReg(R15 (PC))  returns 0x1FFFF000 (0000ms, 0840ms total)
T0950 001:466 JLINK_ClrBPEx(BPHandle = 0x0000000E)  returns 0x00 (0000ms, 0840ms total)
T0950 001:466 JLINK_ReadReg(R0)  returns 0x00000000 (0000ms, 0840ms total)
T0950 001:467 JLINK_WriteMem(0x1FFFF1AC, 0x0100 Bytes, ...) - Data: 02 D0 05 48 10 30 04 43 68 79 80 07 02 D5 02 48 ... -- CPU_WriteMem(256 bytes @ 0x1FFFF1AC)  returns 0x100 (0009ms, 0849ms total)
T0950 001:476 JLINK_WriteReg(R0, 0x00000A00)  returns 0x00 (0001ms, 0850ms total)
T0950 001:477 JLINK_WriteReg(R1, 0x00000100)  returns 0x00 (0000ms, 0850ms total)
T0950 001:477 JLINK_WriteReg(R2, 0x1FFFF1AC)  returns 0x00 (0000ms, 0850ms total)
T0950 001:477 JLINK_WriteReg(R3, 0x00000000)  returns 0x00 (0000ms, 0850ms total)
T0950 001:477 JLINK_WriteReg(R4, 0x00000000)  returns 0x00 (0000ms, 0850ms total)
T0950 001:477 JLINK_WriteReg(R5, 0x00000000)  returns 0x00 (0000ms, 0850ms total)
T0950 001:477 JLINK_WriteReg(R6, 0x00000000)  returns 0x00 (0000ms, 0850ms total)
T0950 001:477 JLINK_WriteReg(R7, 0x00000000)  returns 0x00 (0000ms, 0850ms total)
T0950 001:477 JLINK_WriteReg(R8, 0x00000000)  returns 0x00 (0000ms, 0850ms total)
T0950 001:477 JLINK_WriteReg(R9, 0x1FFFF1A8)  returns 0x00 (0000ms, 0850ms total)
T0950 001:477 JLINK_WriteReg(R10, 0x00000000)  returns 0x00 (0000ms, 0850ms total)
T0950 001:477 JLINK_WriteReg(R11, 0x00000000)  returns 0x00 (0000ms, 0850ms total)
T0950 001:477 JLINK_WriteReg(R12, 0x00000000)  returns 0x00 (0000ms, 0850ms total)
T0950 001:477 JLINK_WriteReg(R13 (SP), 0x1FFFF800)  returns 0x00 (0000ms, 0850ms total)
T0950 001:477 JLINK_WriteReg(R14, 0x1FFFF001)  returns 0x00 (0000ms, 0850ms total)
T0950 001:477 JLINK_WriteReg(R15 (PC), 0x1FFFF118)  returns 0x00 (0000ms, 0850ms total)
T0950 001:477 JLINK_WriteReg(XPSR, 0x01000000)  returns 0x00 (0000ms, 0850ms total)
T0950 001:477 JLINK_WriteReg(MSP, 0x1FFFF800)  returns 0x00 (0000ms, 0850ms total)
T0950 001:477 JLINK_WriteReg(PSP, 0x1FFFF800)  returns 0x00 (0000ms, 0850ms total)
T0950 001:477 JLINK_WriteReg(CFBP, 0x00000000)  returns 0x00 (0000ms, 0850ms total)
T0950 001:477 JLINK_SetBPEx(Addr = 0x1FFFF000, Type = 0xFFFFFFF2)  returns 0x0000000F (0000ms, 0850ms total)
T0950 001:477 JLINK_Go() -- CPU_WriteMem(4 bytes @ 0xE0002000) -- CPU_ReadMem(4 bytes @ 0xE0001000) -- CPU_WriteMem(4 bytes @ 0xE0001000) (0015ms, 0865ms total)
T0950 001:492 JLINK_IsHalted()  returns FALSE (0002ms, 0867ms total)
T0950 001:502 JLINK_IsHalted()  returns TRUE (0014ms, 0879ms total)
T0950 001:516 JLINK_ReadReg(R15 (PC))  returns 0x1FFFF000 (0000ms, 0865ms total)
T0950 001:516 JLINK_ClrBPEx(BPHandle = 0x0000000F)  returns 0x00 (0000ms, 0865ms total)
T0950 001:516 JLINK_ReadReg(R0)  returns 0x00000000 (0000ms, 0865ms total)
T0950 001:517 JLINK_WriteMem(0x1FFFF1AC, 0x0100 Bytes, ...) - Data: E4 1D 68 79 C0 06 02 D5 08 48 0F 30 04 43 68 79 ... -- CPU_WriteMem(256 bytes @ 0x1FFFF1AC)  returns 0x100 (0009ms, 0874ms total)
T0950 001:526 JLINK_WriteReg(R0, 0x00000B00)  returns 0x00 (0000ms, 0874ms total)
T0950 001:526 JLINK_WriteReg(R1, 0x00000100)  returns 0x00 (0000ms, 0874ms total)
T0950 001:526 JLINK_WriteReg(R2, 0x1FFFF1AC)  returns 0x00 (0000ms, 0874ms total)
T0950 001:526 JLINK_WriteReg(R3, 0x00000000)  returns 0x00 (0000ms, 0874ms total)
T0950 001:526 JLINK_WriteReg(R4, 0x00000000)  returns 0x00 (0000ms, 0874ms total)
T0950 001:526 JLINK_WriteReg(R5, 0x00000000)  returns 0x00 (0000ms, 0874ms total)
T0950 001:526 JLINK_WriteReg(R6, 0x00000000)  returns 0x00 (0000ms, 0874ms total)
T0950 001:526 JLINK_WriteReg(R7, 0x00000000)  returns 0x00 (0000ms, 0874ms total)
T0950 001:526 JLINK_WriteReg(R8, 0x00000000)  returns 0x00 (0000ms, 0874ms total)
